<Qucs Dataset 0.0.19>
<indep acfrequency 19>
  +1.00000000000000000000e+004
  +5.55565000000000000000e+008
  +1.11112000000000000000e+009
  +1.66667500000000000000e+009
  +2.22223000000000000000e+009
  +2.77778500000000000000e+009
  +3.33334000000000000000e+009
  +3.88889500000000000000e+009
  +4.44445000000000000000e+009
  +5.00000500000000000000e+009
  +5.55556000000000000000e+009
  +6.11111500000000000000e+009
  +6.66667000000000000000e+009
  +7.22222500000000000000e+009
  +7.77778000000000000000e+009
  +8.33333500000000000000e+009
  +8.88889000000000000000e+009
  +9.44444500000000000000e+009
  +1.00000000000000000000e+010
</indep>
<dep Tdb_R acfrequency>
  -4.81470914684471651412e+000
  -8.83671214133024559835e-009
  -2.20921733083400634626e-009
  -9.81881119482454132178e-010
  -5.52308913211289499716e-010
  -3.53479054509632683634e-010
  -2.45470520942074367508e-010
  -1.80345629814268381206e-010
  -1.38078192626996486888e-010
  -1.09098223601724735036e-010
  -8.83700047079262194892e-011
  -7.30343050071868060485e-011
  -6.13688356442014335830e-011
  -5.22887282190762749590e-011
  -4.50880950262825153252e-011
  -3.92760933853376283540e-011
  -3.45200303202766158028e-011
  -3.05778596369920062105e-011
  -2.72750380640359966089e-011
</dep>
<dep Vo.v acfrequency>
  +5.53341005672080332722e-001+j1.54354267676443751567e-001
  +9.99999998643514520502e-001+j2.60430933390680263023e-005
  +9.99999999660872496143e-001+j1.30216638890118829885e-005
  +9.99999999849275789110e-001+j8.68113530580992553976e-006
  +9.99999999915217374635e-001+j6.51086124645915371377e-006
  +9.99999999945739070917e-001+j5.20869368529318823566e-006
  +9.99999999962318697477e-001+j4.34058067556322173448e-006
  +9.99999999972315811725e-001+j3.72049931648223857118e-006
  +9.99999999978804288148e-001+j3.25543794835332942500e-006
  +9.99999999983252729763e-001+j2.89372334421419208776e-006
  +9.99999999986434739974e-001+j2.60435153067913210650e-006
  +9.99999999988788967897e-001+j2.36759268805248866978e-006
  +9.99999999990579646614e-001+j2.17029359333815900234e-006
  +9.99999999991973198554e-001+j2.00334816347317193631e-006
  +9.99999999993078869664e-001+j1.86025205006724607453e-006
  +9.99999999993970933865e-001+j1.73623539555266185256e-006
  +9.99999999994701016526e-001+j1.62772080541203290548e-006
  +9.99999999995306088074e-001+j1.53197262412311953639e-006
  +9.99999999995813126930e-001+j1.44686311900511482024e-006
</dep>
<dep Vi.v acfrequency>
  +1.00000000000000000000e+000
  +1.00000000000000000000e+000
  +1.00000000000000000000e+000
  +1.00000000000000000000e+000
  +1.00000000000000000000e+000
  +1.00000000000000000000e+000
  +1.00000000000000000000e+000
  +1.00000000000000000000e+000
  +1.00000000000000000000e+000
  +1.00000000000000000000e+000
  +1.00000000000000000000e+000
  +1.00000000000000000000e+000
  +1.00000000000000000000e+000
  +1.00000000000000000000e+000
  +1.00000000000000000000e+000
  +1.00000000000000000000e+000
  +1.00000000000000000000e+000
  +1.00000000000000000000e+000
  +1.00000000000000000000e+000
</dep>
<dep V.i acfrequency>
  -1.10668201134416066393e-004-j3.08708535352887332263e-005
  -1.99999999728702945994e-004-j5.20861931363469921052e-009
  -1.99999999932174517183e-004-j2.60433274945626180852e-009
  -1.99999999969855177641e-004-j1.73622893839819880668e-009
  -1.99999999983043467077e-004-j1.30217224929183036589e-009
  -1.99999999989147823464e-004-j1.04173381032524048351e-009
  -1.99999999992463774494e-004-j8.68116135112644675286e-010
  -1.99999999994463124615e-004-j7.44099863296447650047e-010
  -1.99999999995760833300e-004-j6.51091625059052603319e-010
  -1.99999999996650556708e-004-j5.78737058276601601392e-010
  -1.99999999997286956278e-004-j5.20870306135826509807e-010
  -1.99999999997757798176e-004-j4.73518537610497974666e-010
  -1.99999999998115937259e-004-j4.34058718667631736196e-010
  -1.99999999998394658533e-004-j4.00660837840405292809e-010
  -1.99999999998615781566e-004-j3.72050410013449273139e-010
  -1.99999999998794214138e-004-j3.47247079110532465059e-010
  -1.99999999998940229066e-004-j3.25556470670562703162e-010
  -1.99999999999061253133e-004-j3.06394524824624019030e-010
  -1.99999999999162680247e-004-j2.89389845420373603702e-010
</dep>
<dep _net0.v acfrequency>
  +1.00000000000000000000e+000
  +1.00000000000000000000e+000
  +1.00000000000000000000e+000
  +1.00000000000000000000e+000
  +1.00000000000000000000e+000
  +1.00000000000000000000e+000
  +1.00000000000000000000e+000
  +1.00000000000000000000e+000
  +1.00000000000000000000e+000
  +1.00000000000000000000e+000
  +1.00000000000000000000e+000
  +1.00000000000000000000e+000
  +1.00000000000000000000e+000
  +1.00000000000000000000e+000
  +1.00000000000000000000e+000
  +1.00000000000000000000e+000
  +1.00000000000000000000e+000
  +1.00000000000000000000e+000
  +1.00000000000000000000e+000
</dep>
<dep _net1.v acfrequency>
  +5.53341005672080332722e-001+j1.54354267676443751567e-001
  +9.99999998643514520502e-001+j2.60430933390680263023e-005
  +9.99999999660872496143e-001+j1.30216638890118829885e-005
  +9.99999999849275789110e-001+j8.68113530580992553976e-006
  +9.99999999915217374635e-001+j6.51086124645915371377e-006
  +9.99999999945739070917e-001+j5.20869368529318823566e-006
  +9.99999999962318697477e-001+j4.34058067556322173448e-006
  +9.99999999972315811725e-001+j3.72049931648223857118e-006
  +9.99999999978804288148e-001+j3.25543794835332942500e-006
  +9.99999999983252729763e-001+j2.89372334421419208776e-006
  +9.99999999986434739974e-001+j2.60435153067913210650e-006
  +9.99999999988788967897e-001+j2.36759268805248866978e-006
  +9.99999999990579646614e-001+j2.17029359333815900234e-006
  +9.99999999991973198554e-001+j2.00334816347317193631e-006
  +9.99999999993078869664e-001+j1.86025205006724607453e-006
  +9.99999999993970933865e-001+j1.73623539555266185256e-006
  +9.99999999994701016526e-001+j1.62772080541203290548e-006
  +9.99999999995306088074e-001+j1.53197262412311953639e-006
  +9.99999999995813126930e-001+j1.44686311900511482024e-006
</dep>
